T201C 17368:919 SEGGER J-Link V6.30h Log File (0000ms, 16452ms total)
T201C 17368:919 DLL Compiled: Mar 16 2018 18:02:51 (0000ms, 16452ms total)
T201C 17368:919 Logging started @ 2018-07-14 17:35 (0000ms, 16452ms total)
T201C 17368:919 JLINK_SetWarnOutHandler(...) (0000ms, 16452ms total)
T201C 17368:919 JLINK_OpenEx(...)
Firmware: J-Link ARM V8 compiled Nov 28 2014 13:44:46
Hardware: V8.00
S/N: 304439649
Feature(s): RDI,FlashDL,FlashBP,JFlash,GDBFULL
TELNET listener socket opened on port 19021Device "STM32F051C8" selected.WEBSRV 
Starting webserver (0163ms, 16615ms total)
T201C 17368:919 WEBSRV Webserver running on local port 19080 (0163ms, 16615ms total)
T201C 17368:919   returns O.K. (0163ms, 16615ms total)
T201C 17369:082 JLINK_GetEmuCaps()  returns 0xB9FF7BBF (0000ms, 16615ms total)
T201C 17369:083 JLINK_TIF_GetAvailable(...) (0000ms, 16615ms total)
T201C 17369:083 JLINK_SetErrorOutHandler(...) (0000ms, 16615ms total)
T201C 17369:083 JLINK_ExecCommand("ProjectFile = "E:\work\STM32\project\F051C8_MDK\F051c8_test\MDK-ARM\JLinkSettings.ini"", ...). Device "STM32F051C8" selected.  returns 0x00 (0005ms, 16620ms total)
T201C 17369:088 JLINK_ExecCommand("Device = STM32F051C8Tx", ...). Device "STM32F051C8" selected.  returns 0x00 (0001ms, 16621ms total)
T201C 17369:089 JLINK_ExecCommand("DisableConnectionTimeout", ...).   returns 0x01 (0000ms, 16622ms total)
T201C 17369:090 JLINK_GetHardwareVersion()  returns 0x13880 (0000ms, 16622ms total)
T201C 17369:090 JLINK_GetDLLVersion()  returns 63008 (0000ms, 16622ms total)
T201C 17369:090 JLINK_GetFirmwareString(...) (0000ms, 16622ms total)
T201C 17369:090 JLINK_GetDLLVersion()  returns 63008 (0000ms, 16622ms total)
T201C 17369:090 JLINK_GetCompileDateTime() (0000ms, 16622ms total)
T201C 17369:090 JLINK_GetFirmwareString(...) (0000ms, 16622ms total)
T201C 17369:090 JLINK_GetHardwareVersion()  returns 0x13880 (0000ms, 16622ms total)
T201C 17369:090 JLINK_TIF_Select(JLINKARM_TIF_SWD)  returns 0x00 (0001ms, 16623ms total)
T201C 17369:091 JLINK_SetSpeed(5000) (0000ms, 16623ms total)
T201C 17369:091 JLINK_GetId() >0x10B TIF>Found SW-DP with ID 0x0BB11477 >0x0D TIF> >0x28 TIF> >0x0D TIF> >0x28 TIF> >0x0D TIF> >0x28 TIF> >0x0D TIF> >0x28 TIF> >0x0D TIF> >0x21 TIF> >0x0D TIF> >0x28 TIF> >0x0D TIF> >0x28 TIF> >0x0D TIF> >0x28 TIF> >0x0D TIF> >0x21 TIF> >0x0D TIF> >0x21 TIF> >0x0D TIF> >0x28 TIF> >0x0D TIF> >0x21 TIF> >0x0D TIF> >0x21 TIF> >0x0D TIF> >0x28 TIF> >0x0D TIF> >0x21 TIF> >0x0D TIF> >0x21 TIF> >0x0D TIF> >0x28 TIF> >0x0D TIF> >0x28 TIF> >0x0D TIF> >0x28 TIF> >0x0D TIF>
 >0x21 TIF> >0x0D TIF> >0x21 TIF> >0x0D TIF> >0x28 TIF> >0x0D TIF> >0x28 TIF> >0x0D TIF> >0x28 TIF> >0x0D TIF> >0x21 TIF> >0x0D TIF> >0x21 TIF> >0x0D TIF> >0x28 TIF> >0x0D TIF> >0x21 TIF> >0x0D TIF> >0x21 TIF> >0x0D TIF> >0x28 TIF> >0x0D TIF> >0x21 TIF> >0x0D TIF> >0x21 TIF> >0x0D TIF> >0x28 TIF> >0x0D TIF> >0x21 TIF> >0x0D TIF> >0x21 TIF> >0x0D TIF> >0x28 TIF> >0x0D TIF> >0x21 TIF> >0x0D TIF> >0x21 TIF> >0x0D TIF> >0x28 TIF> >0x0D TIF> >0x21 TIF> >0x0D TIF> >0x21 TIF> >0x10B TIF>
Found SW-DP with ID 0x0BB11477 >0x0D TIF> >0x28 TIF> >0x0D TIF> >0x28 TIF> >0x0D TIF> >0x28 TIF> >0x0D TIF> >0x28 TIF> >0x0D TIF> >0x21 TIF> >0x0D TIF> >0x28 TIF>Scanning AP map to find all available APs >0x0D TIF> >0x28 TIF> >0x0D TIF> >0x21 TIF> >0x0D TIF> >0x21 TIF> >0x0D TIF> >0x28 TIF> >0x0D TIF> >0x21 TIF> >0x0D TIF> >0x21 TIF>AP[1]: Stopped AP scan as end of AP map has been reachedAP[0]: AHB-AP (IDR: 0x04770021)Iterating through AP map to find AHB-AP to use >0x42 TIF> >0x28 TIF> >0x0D TIF>
 >0x28 TIF> >0x0D TIF> >0x21 TIF> >0x0D TIF> >0x21 TIF> >0x42 TIF> >0x28 TIF> >0x0D TIF> >0x28 TIF> >0x0D TIF> >0x28 TIF> >0x0D TIF> >0x21 TIF> >0x0D TIF> >0x21 TIF>AP[0]: Core foundAP[0]: AHB-AP ROM base: 0xE00FF000 >0x0D TIF> >0x28 TIF> >0x0D TIF> >0x28 TIF> >0x0D TIF> >0x28 TIF> >0x0D TIF> >0x21 TIF> >0x0D TIF> >0x21 TIF>CPUID register: 0x410CC200. Implementer code: 0x41 (ARM)Found Cortex-M0 r0p0, Little endian. -- CPU_ReadMem(4 bytes @ 0xE000EDF0) -- CPU_WriteMem(4 bytes @ 0xE000EDF0)
 -- CPU_ReadMem(4 bytes @ 0xE0002000)FPUnit: 4 code (BP) slots and 0 literal slots -- CPU_ReadMem(4 bytes @ 0xE000EDFC) -- CPU_WriteMem(4 bytes @ 0xE000EDFC) -- CPU_ReadMem(4 bytes @ 0xE0001000) -- CPU_WriteMem(4 bytes @ 0xE0001000)CoreSight components:ROMTbl[0] @ E00FF000 -- CPU_ReadMem(16 bytes @ 0xE00FF000) -- CPU_ReadMem(16 bytes @ 0xE000EFF0) -- CPU_ReadMem(16 bytes @ 0xE000EFE0)ROMTbl[0][0]: E000E000, CID: B105E00D, PID: 000BB008 SCS -- CPU_ReadMem(16 bytes @ 0xE0001FF0)
 -- CPU_ReadMem(16 bytes @ 0xE0001FE0)ROMTbl[0][1]: E0001000, CID: B105E00D, PID: 000BB00A DWT -- CPU_ReadMem(16 bytes @ 0xE0002FF0) -- CPU_ReadMem(16 bytes @ 0xE0002FE0)ROMTbl[0][2]: E0002000, CID: B105E00D, PID: 000BB00B FPB >0x0D TIF> >0x21 TIF>  returns 0x0BB11477 (0152ms, 16775ms total)
T201C 17369:243 JLINK_GetDLLVersion()  returns 63008 (0000ms, 16775ms total)
T201C 17369:243 JLINK_CORE_GetFound()  returns 0x60000FF (0000ms, 16775ms total)
T201C 17369:243 JLINK_GetDebugInfo(0x100 = JLINKARM_ROM_TABLE_ADDR_INDEX) -- Value=0xE00FF000  returns 0x00 (0000ms, 16775ms total)
T201C 17369:243 JLINK_GetDebugInfo(0x100 = JLINKARM_ROM_TABLE_ADDR_INDEX) -- Value=0xE00FF000  returns 0x00 (0000ms, 16775ms total)
T201C 17369:243 JLINK_GetDebugInfo(0x101 = JLINKARM_DEBUG_INFO_ETM_ADDR_INDEX) -- Value=0x00000000  returns 0x00 (0000ms, 16775ms total)
T201C 17369:243 JLINK_ReadMemEx(0xE0041FF0, 0x0010 Bytes, ..., Flags = 0x02000004) -- CPU_ReadMem(16 bytes @ 0xE0041FF0) - Data: 00 00 00 00 00 00 00 00 00 00 00 00 00 00 00 00  returns 0x10 (0000ms, 16775ms total)
T201C 17369:243 JLINK_GetDebugInfo(0x102 = JLINKARM_DEBUG_INFO_MTB_ADDR_INDEX) -- Value=0x00000000  returns 0x00 (0000ms, 16775ms total)
T201C 17369:243 JLINK_GetDebugInfo(0x103 = JLINKARM_DEBUG_INFO_TPIU_ADDR_INDEX) -- Value=0x00000000  returns 0x00 (0000ms, 16775ms total)
T201C 17369:243 JLINK_ReadMemEx(0xE0040FF0, 0x0010 Bytes, ..., Flags = 0x02000004) -- CPU_ReadMem(16 bytes @ 0xE0040FF0) - Data: 00 00 00 00 00 00 00 00 00 00 00 00 00 00 00 00  returns 0x10 (0001ms, 16776ms total)
T201C 17369:244 JLINK_GetDebugInfo(0x104 = JLINKARM_DEBUG_INFO_ITM_ADDR_INDEX) -- Value=0xE0000000  returns 0x00 (0000ms, 16776ms total)
T201C 17369:244 JLINK_GetDebugInfo(0x105 = JLINKARM_DEBUG_INFO_DWT_ADDR_INDEX) -- Value=0xE0001000  returns 0x00 (0000ms, 16776ms total)
T201C 17369:244 JLINK_GetDebugInfo(0x106 = JLINKARM_DEBUG_INFO_FPB_ADDR_INDEX) -- Value=0xE0002000  returns 0x00 (0000ms, 16776ms total)
T201C 17369:244 JLINK_GetDebugInfo(0x107 = JLINKARM_DEBUG_INFO_NVIC_ADDR_INDEX) -- Value=0xE000E000  returns 0x00 (0000ms, 16776ms total)
T201C 17369:244 JLINK_GetDebugInfo(0x10C = JLINKARM_DEBUG_INFO_DBG_ADDR_INDEX) -- Value=0xE000EDF0  returns 0x00 (0000ms, 16776ms total)
T201C 17369:244 JLINK_GetDebugInfo(0x01 = Unknown) -- Value=0x00000000  returns 0x00 (0000ms, 16776ms total)
T201C 17369:244 JLINK_ReadMemU32(0xE000ED00, 0x0001 Items, ...) -- CPU_ReadMem(4 bytes @ 0xE000ED00) - Data: 00 C2 0C 41  returns 0x01 (0001ms, 16777ms total)
T201C 17369:245 JLINK_GetDebugInfo(0x10F = JLINKARM_DEBUG_INFO_HAS_CORTEX_M_SECURITY_EXT_INDEX) -- Value=0x00000000  returns 0x00 (0000ms, 16777ms total)
T201C 17369:245 JLINK_SetResetType(JLINKARM_CM3_RESET_TYPE_NORMAL)  returns JLINKARM_CM3_RESET_TYPE_NORMAL (0000ms, 16777ms total)
T201C 17369:245 JLINK_Reset() -- CPU is running -- CPU_WriteMem(4 bytes @ 0xE000EDF0) -- CPU is running -- CPU_WriteMem(4 bytes @ 0xE000EDFC)Reset: Halt core after reset via DEMCR.VC_CORERESET. >0x35 TIF>Reset: Reset device via AIRCR.SYSRESETREQ. -- CPU is running -- CPU_WriteMem(4 bytes @ 0xE000ED0C) >0x0D TIF> >0x28 TIF> -- CPU_ReadMem(4 bytes @ 0xE000EDF0) -- CPU_ReadMem(4 bytes @ 0xE000EDF0) -- CPU is running -- CPU_WriteMem(4 bytes @ 0xE000EDF0) -- CPU is running
 -- CPU_WriteMem(4 bytes @ 0xE000EDFC) -- CPU_ReadMem(4 bytes @ 0xE000EDF0) -- CPU_WriteMem(4 bytes @ 0xE0002000) -- CPU_ReadMem(4 bytes @ 0xE000EDFC) -- CPU_ReadMem(4 bytes @ 0xE0001000) -- CPU_WriteMem(4 bytes @ 0xE0001000) (0066ms, 16843ms total)
T201C 17369:311 JLINK_ReadReg(R15 (PC))  returns 0x08000148 (0000ms, 16843ms total)
T201C 17369:311 JLINK_ReadReg(XPSR)  returns 0xC1000000 (0000ms, 16843ms total)
T201C 17369:311 JLINK_Halt()  returns 0x00 (0000ms, 16843ms total)
T201C 17369:311 JLINK_ReadMemU32(0xE000EDF0, 0x0001 Items, ...) -- CPU_ReadMem(4 bytes @ 0xE000EDF0) - Data: 03 00 03 00  returns 0x01 (0001ms, 16844ms total)
T201C 17369:312 JLINK_WriteU32(0xE000EDF0, 0xA05F0003) -- CPU_WriteMem(4 bytes @ 0xE000EDF0)  returns 0x00 (0000ms, 16844ms total)
T201C 17369:312 JLINK_WriteU32(0xE000EDFC, 0x01000000) -- CPU_WriteMem(4 bytes @ 0xE000EDFC)  returns 0x00 (0001ms, 16845ms total)
T201C 17369:313 JLINK_GetHWStatus(...)  returns 0x00 (0000ms, 16845ms total)
T201C 17369:313 JLINK_GetNumBPUnits(Type = 0xFFFFFF00)  returns 0x04 (0000ms, 16845ms total)
T201C 17369:313 JLINK_GetNumBPUnits(Type = 0xF0)  returns 0x2000 (0000ms, 16845ms total)
T201C 17369:313 JLINK_GetNumWPUnits()  returns 0x02 (0000ms, 16845ms total)
T201C 17369:313 JLINK_GetSpeed()  returns 0xFA0 (0000ms, 16845ms total)
T201C 17369:313 JLINK_ReadMemU32(0xE000E004, 0x0001 Items, ...) -- CPU_ReadMem(4 bytes @ 0xE000E004) - Data: 00 00 00 00  returns 0x01 (0001ms, 16846ms total)
T201C 17369:314 JLINK_ReadReg(R15 (PC))  returns 0x08000148 (0000ms, 16846ms total)
T201C 17369:314 JLINK_ReadReg(XPSR)  returns 0xC1000000 (0000ms, 16846ms total)
T201C 17369:398 JLINK_SetResetType(JLINKARM_CM3_RESET_TYPE_NORMAL)  returns JLINKARM_CM3_RESET_TYPE_NORMAL (0000ms, 16846ms total)
T201C 17369:398 JLINK_Reset() -- CPU_WriteMem(4 bytes @ 0xE000EDF0) -- CPU_WriteMem(4 bytes @ 0xE000EDFC)Reset: Halt core after reset via DEMCR.VC_CORERESET. >0x35 TIF>Reset: Reset device via AIRCR.SYSRESETREQ. -- CPU_WriteMem(4 bytes @ 0xE000ED0C) >0x0D TIF> >0x28 TIF> -- CPU_ReadMem(4 bytes @ 0xE000EDF0) -- CPU_ReadMem(4 bytes @ 0xE000EDF0) -- CPU_WriteMem(4 bytes @ 0xE000EDF0) -- CPU_WriteMem(4 bytes @ 0xE000EDFC) -- CPU_ReadMem(4 bytes @ 0xE000EDF0) -- CPU_WriteMem(4 bytes @ 0xE0002000)
 -- CPU_ReadMem(4 bytes @ 0xE000EDFC) -- CPU_ReadMem(4 bytes @ 0xE0001000) -- CPU_WriteMem(4 bytes @ 0xE0001000) (0066ms, 16912ms total)
T201C 17369:464 JLINK_ReadReg(R15 (PC))  returns 0x08000148 (0000ms, 16912ms total)
T201C 17369:464 JLINK_ReadReg(XPSR)  returns 0xC1000000 (0000ms, 16912ms total)
T201C 17369:465 JLINK_ReadMemEx(0x08000148, 0x003C Bytes, ..., Flags = 0x02000000) -- CPU_ReadMem(128 bytes @ 0x08000140) -- Updating C cache (128 bytes @ 0x08000140) -- Read from C cache (60 bytes @ 0x08000148) - Data: 04 48 80 47 04 48 00 47 FE E7 FE E7 FE E7 FE E7 ...  returns 0x3C (0002ms, 16914ms total)
T201C 17371:728 JLINK_ReadReg(R0)  returns 0xFFFFFFFF (0000ms, 16914ms total)
T201C 17371:728 JLINK_ReadReg(R1)  returns 0xFFFFFFFF (0000ms, 16914ms total)
T201C 17371:728 JLINK_ReadReg(R2)  returns 0xFFFFFFFF (0000ms, 16914ms total)
T201C 17371:728 JLINK_ReadReg(R3)  returns 0xFFFFFFFF (0000ms, 16914ms total)
T201C 17371:728 JLINK_ReadReg(R4)  returns 0xFFFFFFFF (0000ms, 16914ms total)
T201C 17371:728 JLINK_ReadReg(R5)  returns 0xFFFFFFFF (0000ms, 16914ms total)
T201C 17371:728 JLINK_ReadReg(R6)  returns 0xFFFFFFFF (0000ms, 16914ms total)
T201C 17371:728 JLINK_ReadReg(R7)  returns 0xFFFFFFFF (0000ms, 16914ms total)
T201C 17371:728 JLINK_ReadReg(R8)  returns 0xFFFFFFFF (0000ms, 16914ms total)
T201C 17371:728 JLINK_ReadReg(R9)  returns 0xFFFFFFFF (0000ms, 16914ms total)
T201C 17371:728 JLINK_ReadReg(R10)  returns 0xFFFFFFFF (0000ms, 16914ms total)
T201C 17371:728 JLINK_ReadReg(R11)  returns 0xFFFFFFFF (0000ms, 16914ms total)
T201C 17371:728 JLINK_ReadReg(R12)  returns 0xFFFFFFFF (0000ms, 16914ms total)
T201C 17371:728 JLINK_ReadReg(R13 (SP))  returns 0x20001460 (0001ms, 16915ms total)
T201C 17371:729 JLINK_ReadReg(R14)  returns 0xFFFFFFFF (0000ms, 16915ms total)
T201C 17371:729 JLINK_ReadReg(R15 (PC))  returns 0x08000148 (0000ms, 16915ms total)
T201C 17371:729 JLINK_ReadReg(XPSR)  returns 0xC1000000 (0000ms, 16915ms total)
T201C 17371:729 JLINK_ReadReg(MSP)  returns 0x20001460 (0000ms, 16915ms total)
T201C 17371:729 JLINK_ReadReg(PSP)  returns 0xFFFFFFFC (0000ms, 16915ms total)
T201C 17371:729 JLINK_ReadReg(CFBP)  returns 0x00000000 (0000ms, 16915ms total)
T3B58 17371:794 JLINK_ReadMemEx(0x08000148, 0x0002 Bytes, ..., Flags = 0x02000000) -- Read from C cache (2 bytes @ 0x08000148) - Data: 04 48  returns 0x02 (0000ms, 16915ms total)
T3B58 17371:794 JLINK_SetBPEx(Addr = 0x0800296C, Type = 0xFFFFFFF2)  returns 0x00000001 (0000ms, 16915ms total)
T3B58 17371:794 JLINK_SetBPEx(Addr = 0x08002E76, Type = 0xFFFFFFF2)  returns 0x00000002 (0000ms, 16915ms total)
T3B58 17371:794 JLINK_Go() -- CPU_WriteMem(4 bytes @ 0xE0002000) -- CPU_WriteMem(4 bytes @ 0xE0002000) -- CPU_ReadMem(4 bytes @ 0xE0001000) -- CPU_WriteMem(4 bytes @ 0xE0001000) -- CPU_WriteMem(4 bytes @ 0xE0002008) -- CPU_WriteMem(4 bytes @ 0xE000200C) -- CPU_WriteMem(4 bytes @ 0xE0002010) -- CPU_WriteMem(4 bytes @ 0xE0002014) -- CPU_WriteMem(4 bytes @ 0xE0001004) (0004ms, 16919ms total)
T3B58 17371:899 JLINK_IsHalted()  returns TRUE (0002ms, 16921ms total)
T3B58 17371:901 JLINK_Halt()  returns 0x00 (0000ms, 16919ms total)
T3B58 17371:901 JLINK_IsHalted()  returns TRUE (0000ms, 16919ms total)
T3B58 17371:901 JLINK_IsHalted()  returns TRUE (0000ms, 16919ms total)
T3B58 17371:901 JLINK_IsHalted()  returns TRUE (0000ms, 16919ms total)
T3B58 17371:901 JLINK_ReadReg(R15 (PC))  returns 0x0800296C (0000ms, 16919ms total)
T3B58 17371:901 JLINK_ReadReg(XPSR)  returns 0x61000000 (0000ms, 16919ms total)
T3B58 17371:901 JLINK_ClrBPEx(BPHandle = 0x00000001)  returns 0x00 (0000ms, 16919ms total)
T3B58 17371:901 JLINK_ClrBPEx(BPHandle = 0x00000002)  returns 0x00 (0000ms, 16919ms total)
T3B58 17371:901 JLINK_ReadMemU32(0xE000ED30, 0x0001 Items, ...) -- CPU_ReadMem(4 bytes @ 0xE000ED30) - Data: 03 00 00 00  returns 0x01 (0001ms, 16920ms total)
T3B58 17371:902 JLINK_ReadMemU32(0xE0001028, 0x0001 Items, ...) -- CPU_ReadMem(4 bytes @ 0xE0001028) - Data: 00 00 00 00  returns 0x01 (0000ms, 16920ms total)
T3B58 17371:902 JLINK_ReadMemU32(0xE0001038, 0x0001 Items, ...) -- CPU_ReadMem(4 bytes @ 0xE0001038) - Data: 00 00 00 00  returns 0x01 (0001ms, 16921ms total)
T3B58 17371:903 JLINK_ReadReg(R0)  returns 0x0800296D (0000ms, 16921ms total)
T3B58 17371:903 JLINK_ReadReg(R1)  returns 0x20001460 (0000ms, 16921ms total)
T3B58 17371:903 JLINK_ReadReg(R2)  returns 0x00000000 (0000ms, 16921ms total)
T3B58 17371:903 JLINK_ReadReg(R3)  returns 0x08002647 (0000ms, 16921ms total)
T3B58 17371:903 JLINK_ReadReg(R4)  returns 0x080034C0 (0000ms, 16921ms total)
T3B58 17371:903 JLINK_ReadReg(R5)  returns 0x00000001 (0000ms, 16921ms total)
T3B58 17371:903 JLINK_ReadReg(R6)  returns 0x080034C0 (0000ms, 16921ms total)
T3B58 17371:903 JLINK_ReadReg(R7)  returns 0xFFFFFFFF (0000ms, 16921ms total)
T3B58 17371:903 JLINK_ReadReg(R8)  returns 0xFFFFFFFF (0000ms, 16921ms total)
T3B58 17371:903 JLINK_ReadReg(R9)  returns 0xFFFFFFFF (0000ms, 16921ms total)
T3B58 17371:903 JLINK_ReadReg(R10)  returns 0xFFFFFFFF (0000ms, 16921ms total)
T3B58 17371:903 JLINK_ReadReg(R11)  returns 0xFFFFFFFF (0000ms, 16921ms total)
T3B58 17371:903 JLINK_ReadReg(R12)  returns 0xFFFFFFFF (0000ms, 16921ms total)
T3B58 17371:903 JLINK_ReadReg(R13 (SP))  returns 0x20001460 (0000ms, 16921ms total)
T3B58 17371:903 JLINK_ReadReg(R14)  returns 0x08000255 (0000ms, 16921ms total)
T3B58 17371:903 JLINK_ReadReg(R15 (PC))  returns 0x0800296C (0000ms, 16921ms total)
T3B58 17371:903 JLINK_ReadReg(XPSR)  returns 0x61000000 (0000ms, 16921ms total)
T3B58 17371:903 JLINK_ReadReg(MSP)  returns 0x20001460 (0000ms, 16921ms total)
T3B58 17371:903 JLINK_ReadReg(PSP)  returns 0xFFFFFFFC (0000ms, 16921ms total)
T3B58 17371:903 JLINK_ReadReg(CFBP)  returns 0x00000000 (0000ms, 16921ms total)
T3B58 17374:196 JLINK_ReadMemEx(0x0800296C, 0x0002 Bytes, ..., Flags = 0x02000000) -- CPU_ReadMem(64 bytes @ 0x08002940) -- Updating C cache (64 bytes @ 0x08002940) -- Read from C cache (2 bytes @ 0x0800296C) - Data: 86 B0  returns 0x02 (0001ms, 16922ms total)
T3B58 17374:197 JLINK_SetBPEx(Addr = 0x08002E76, Type = 0xFFFFFFF2)  returns 0x00000003 (0000ms, 16922ms total)
T3B58 17374:197 JLINK_Go() -- CPU_WriteMem(4 bytes @ 0xE0002000) -- CPU_ReadMem(4 bytes @ 0xE0001000) -- CPU_WriteMem(4 bytes @ 0xE0001000) -- CPU_WriteMem(4 bytes @ 0xE0002008) -- CPU_WriteMem(4 bytes @ 0xE000200C) (0003ms, 16925ms total)
T3B58 17374:301 JLINK_IsHalted()  returns TRUE (0002ms, 16927ms total)
T3B58 17374:303 JLINK_Halt()  returns 0x00 (0000ms, 16925ms total)
T3B58 17374:303 JLINK_IsHalted()  returns TRUE (0000ms, 16925ms total)
T3B58 17374:303 JLINK_IsHalted()  returns TRUE (0000ms, 16925ms total)
T3B58 17374:303 JLINK_IsHalted()  returns TRUE (0000ms, 16925ms total)
T3B58 17374:303 JLINK_ReadReg(R15 (PC))  returns 0x08002E76 (0000ms, 16925ms total)
T3B58 17374:303 JLINK_ReadReg(XPSR)  returns 0x21000000 (0000ms, 16925ms total)
T3B58 17374:303 JLINK_ClrBPEx(BPHandle = 0x00000003)  returns 0x00 (0000ms, 16925ms total)
T3B58 17374:303 JLINK_ReadMemU32(0xE000ED30, 0x0001 Items, ...) -- CPU_ReadMem(4 bytes @ 0xE000ED30) - Data: 03 00 00 00  returns 0x01 (0000ms, 16925ms total)
T3B58 17374:304 JLINK_ReadMemU32(0xE0001028, 0x0001 Items, ...) -- CPU_ReadMem(4 bytes @ 0xE0001028) - Data: 00 00 00 00  returns 0x01 (0000ms, 16926ms total)
T3B58 17374:304 JLINK_ReadMemU32(0xE0001038, 0x0001 Items, ...) -- CPU_ReadMem(4 bytes @ 0xE0001038) - Data: 00 00 00 00  returns 0x01 (0000ms, 16926ms total)
T3B58 17374:305 JLINK_ReadReg(R0)  returns 0x48000400 (0000ms, 16926ms total)
T3B58 17374:305 JLINK_ReadReg(R1)  returns 0x00002000 (0000ms, 16926ms total)
T3B58 17374:305 JLINK_ReadReg(R2)  returns 0x00000001 (0000ms, 16926ms total)
T3B58 17374:305 JLINK_ReadReg(R3)  returns 0x0000000A (0000ms, 16926ms total)
T3B58 17374:305 JLINK_ReadReg(R4)  returns 0x00000000 (0000ms, 16926ms total)
T3B58 17374:305 JLINK_ReadReg(R5)  returns 0x08002D25 (0000ms, 16926ms total)
T3B58 17374:305 JLINK_ReadReg(R6)  returns 0x080034C0 (0000ms, 16926ms total)
T3B58 17374:305 JLINK_ReadReg(R7)  returns 0xFFFFFFFF (0000ms, 16926ms total)
T3B58 17374:305 JLINK_ReadReg(R8)  returns 0xFFFFFFFF (0000ms, 16926ms total)
T3B58 17374:305 JLINK_ReadReg(R9)  returns 0xFFFFFFFF (0000ms, 16926ms total)
T3B58 17374:305 JLINK_ReadReg(R10)  returns 0xFFFFFFFF (0000ms, 16926ms total)
T3B58 17374:305 JLINK_ReadReg(R11)  returns 0xFFFFFFFF (0000ms, 16926ms total)
T3B58 17374:305 JLINK_ReadReg(R12)  returns 0x00008000 (0000ms, 16926ms total)
T3B58 17374:305 JLINK_ReadReg(R13 (SP))  returns 0x20000570 (0000ms, 16926ms total)
T3B58 17374:305 JLINK_ReadReg(R14)  returns 0x0800301B (0000ms, 16926ms total)
T3B58 17374:305 JLINK_ReadReg(R15 (PC))  returns 0x08002E76 (0000ms, 16926ms total)
T3B58 17374:305 JLINK_ReadReg(XPSR)  returns 0x21000000 (0000ms, 16926ms total)
T3B58 17374:305 JLINK_ReadReg(MSP)  returns 0x20001428 (0000ms, 16926ms total)
T3B58 17374:305 JLINK_ReadReg(PSP)  returns 0x20000570 (0000ms, 16926ms total)
T3B58 17374:306 JLINK_ReadReg(CFBP)  returns 0x02000000 (0000ms, 16926ms total)
T201C 17374:311 JLINK_ReadMemEx(0x00000000, 0x0001 Bytes, ..., Flags = 0x02000000) -- CPU_ReadMem(4 bytes @ 0x00000004) -- CPU_ReadMem(64 bytes @ 0x08000000) -- Updating C cache (64 bytes @ 0x08000000) -- Read from C cache (1 bytes @ 0x08000000) - Data: 60  returns 0x01 (0001ms, 16927ms total)
T201C 17374:312 JLINK_ReadMemEx(0x00000000, 0x0004 Bytes, ..., Flags = 0x02000000) -- Read from C cache (4 bytes @ 0x08000000) - Data: 60 14 00 20  returns 0x04 (0000ms, 16927ms total)
T201C 17374:318 JLINK_ReadMemEx(0x08002E76, 0x0002 Bytes, ..., Flags = 0x02000000) -- CPU_ReadMem(64 bytes @ 0x08002E40) -- Updating C cache (64 bytes @ 0x08002E40) -- Read from C cache (2 bytes @ 0x08002E76) - Data: 49 4D  returns 0x02 (0001ms, 16928ms total)
T201C 17374:319 JLINK_ReadMemEx(0x08002E78, 0x003C Bytes, ..., Flags = 0x02000000) -- CPU_ReadMem(64 bytes @ 0x08002E80) -- Updating C cache (64 bytes @ 0x08002E80) -- Read from C cache (60 bytes @ 0x08002E78) - Data: 48 49 52 20 FE F7 EB FD 00 28 08 D0 FF F7 DC FF ...  returns 0x3C (0001ms, 16929ms total)
T3B58 17378:172 JLINK_ReadMemEx(0x08002E76, 0x0002 Bytes, ..., Flags = 0x02000000) -- Read from C cache (2 bytes @ 0x08002E76) - Data: 49 4D  returns 0x02 (0000ms, 16929ms total)
T3B58 17378:172 JLINK_SetBPEx(Addr = 0x08002E96, Type = 0xFFFFFFF2)  returns 0x00000004 (0000ms, 16929ms total)
T3B58 17378:172 JLINK_Go() -- CPU_WriteMem(4 bytes @ 0xE0002000) -- CPU_ReadMem(4 bytes @ 0xE0001000) -- CPU_WriteMem(4 bytes @ 0xE0001000) -- CPU_WriteMem(4 bytes @ 0xE0002008) (0002ms, 16931ms total)
T3B58 17378:276 JLINK_IsHalted()  returns FALSE (0000ms, 16931ms total)
T3B58 17378:376 JLINK_IsHalted()  returns FALSE (0000ms, 16931ms total)
T3B58 17378:477 JLINK_IsHalted()  returns FALSE (0000ms, 16931ms total)
T3B58 17378:578 JLINK_IsHalted()  returns FALSE (0000ms, 16931ms total)
T3B58 17378:678 JLINK_IsHalted()  returns FALSE (0000ms, 16931ms total)
T3B58 17378:779 JLINK_IsHalted()  returns FALSE (0000ms, 16931ms total)
T3B58 17378:880 JLINK_IsHalted()  returns FALSE (0000ms, 16931ms total)
T3B58 17378:981 JLINK_IsHalted()  returns FALSE (0000ms, 16931ms total)
T3B58 17379:081 JLINK_IsHalted()  returns FALSE (0000ms, 16931ms total)
T3B58 17379:182 JLINK_IsHalted()  returns FALSE (0000ms, 16931ms total)
T3B58 17379:283 JLINK_IsHalted()  returns FALSE (0000ms, 16931ms total)
T3B58 17379:384 JLINK_IsHalted()  returns FALSE (0000ms, 16931ms total)
T3B58 17379:484 JLINK_IsHalted()  returns FALSE (0000ms, 16931ms total)
T3B58 17379:585 JLINK_IsHalted()  returns FALSE (0000ms, 16931ms total)
T3B58 17379:686 JLINK_IsHalted()  returns FALSE (0000ms, 16931ms total)
T3B58 17379:788 JLINK_IsHalted()  returns FALSE (0000ms, 16931ms total)
T3B58 17379:889 JLINK_IsHalted()  returns FALSE (0000ms, 16931ms total)
T3B58 17379:990 JLINK_IsHalted()  returns FALSE (0000ms, 16931ms total)
T3B58 17380:091 JLINK_IsHalted()  returns FALSE (0000ms, 16931ms total)
T3B58 17380:191 JLINK_IsHalted()  returns FALSE (0000ms, 16931ms total)
T3B58 17380:292 JLINK_IsHalted()  returns FALSE (0000ms, 16931ms total)
T3B58 17380:393 JLINK_IsHalted()  returns FALSE (0000ms, 16931ms total)
T3B58 17380:494 JLINK_IsHalted()  returns FALSE (0000ms, 16931ms total)
T3B58 17380:594 JLINK_IsHalted()  returns FALSE (0000ms, 16931ms total)
T3B58 17380:695 JLINK_IsHalted()  returns FALSE (0000ms, 16931ms total)
T3B58 17380:796 JLINK_IsHalted()  returns FALSE (0000ms, 16931ms total)
T3B58 17380:897 JLINK_IsHalted()  returns FALSE (0000ms, 16931ms total)
T3B58 17380:997 JLINK_IsHalted()  returns FALSE (0000ms, 16931ms total)
T3B58 17381:098 JLINK_IsHalted()  returns FALSE (0000ms, 16931ms total)
T3B58 17381:199 JLINK_IsHalted()  returns FALSE (0000ms, 16931ms total)
T3B58 17381:299 JLINK_IsHalted()  returns FALSE (0000ms, 16931ms total)
T3B58 17381:400 JLINK_IsHalted()  returns FALSE (0000ms, 16931ms total)
T3B58 17381:501 JLINK_IsHalted()  returns FALSE (0000ms, 16931ms total)
T3B58 17381:602 JLINK_IsHalted()  returns FALSE (0000ms, 16931ms total)
T3B58 17381:702 JLINK_IsHalted()  returns FALSE (0000ms, 16931ms total)
T3B58 17381:803 JLINK_IsHalted()  returns FALSE (0000ms, 16931ms total)
T3B58 17381:904 JLINK_IsHalted()  returns FALSE (0000ms, 16931ms total)
T3B58 17382:005 JLINK_IsHalted()  returns FALSE (0000ms, 16931ms total)
T3B58 17382:105 JLINK_IsHalted()  returns FALSE (0000ms, 16931ms total)
T3B58 17382:206 JLINK_IsHalted()  returns TRUE (0002ms, 16933ms total)
T3B58 17382:208 JLINK_Halt()  returns 0x00 (0000ms, 16931ms total)
T3B58 17382:208 JLINK_IsHalted()  returns TRUE (0000ms, 16931ms total)
T3B58 17382:208 JLINK_IsHalted()  returns TRUE (0000ms, 16931ms total)
T3B58 17382:208 JLINK_IsHalted()  returns TRUE (0000ms, 16931ms total)
T3B58 17382:208 JLINK_ReadReg(R15 (PC))  returns 0x08002E96 (0000ms, 16931ms total)
T3B58 17382:208 JLINK_ReadReg(XPSR)  returns 0x61000000 (0000ms, 16931ms total)
T3B58 17382:208 JLINK_ClrBPEx(BPHandle = 0x00000004)  returns 0x00 (0000ms, 16931ms total)
T3B58 17382:208 JLINK_ReadMemU32(0xE000ED30, 0x0001 Items, ...) -- CPU_ReadMem(4 bytes @ 0xE000ED30) - Data: 03 00 00 00  returns 0x01 (0001ms, 16932ms total)
T3B58 17382:209 JLINK_ReadMemU32(0xE0001028, 0x0001 Items, ...) -- CPU_ReadMem(4 bytes @ 0xE0001028) - Data: 00 00 00 00  returns 0x01 (0000ms, 16932ms total)
T3B58 17382:209 JLINK_ReadMemU32(0xE0001038, 0x0001 Items, ...) -- CPU_ReadMem(4 bytes @ 0xE0001038) - Data: 00 00 00 00  returns 0x01 (0001ms, 16933ms total)
T3B58 17382:210 JLINK_ReadReg(R0)  returns 0x00000000 (0000ms, 16933ms total)
T3B58 17382:210 JLINK_ReadReg(R1)  returns 0x00000000 (0000ms, 16933ms total)
T3B58 17382:210 JLINK_ReadReg(R2)  returns 0x00000001 (0000ms, 16933ms total)
T3B58 17382:210 JLINK_ReadReg(R3)  returns 0x2000054C (0000ms, 16933ms total)
T3B58 17382:210 JLINK_ReadReg(R4)  returns 0x00000000 (0000ms, 16933ms total)
T3B58 17382:210 JLINK_ReadReg(R5)  returns 0x20000358 (0000ms, 16933ms total)
T3B58 17382:210 JLINK_ReadReg(R6)  returns 0x080034C0 (0000ms, 16933ms total)
T3B58 17382:210 JLINK_ReadReg(R7)  returns 0xFFFFFFFF (0000ms, 16933ms total)
T3B58 17382:210 JLINK_ReadReg(R8)  returns 0xFFFFFFFF (0000ms, 16933ms total)
T3B58 17382:210 JLINK_ReadReg(R9)  returns 0xFFFFFFFF (0000ms, 16933ms total)
T3B58 17382:210 JLINK_ReadReg(R10)  returns 0xFFFFFFFF (0000ms, 16933ms total)
T3B58 17382:210 JLINK_ReadReg(R11)  returns 0xFFFFFFFF (0000ms, 16933ms total)
T3B58 17382:210 JLINK_ReadReg(R12)  returns 0x00008000 (0000ms, 16933ms total)
T3B58 17382:210 JLINK_ReadReg(R13 (SP))  returns 0x20000570 (0000ms, 16933ms total)
T3B58 17382:210 JLINK_ReadReg(R14)  returns 0x0800301B (0000ms, 16933ms total)
T3B58 17382:210 JLINK_ReadReg(R15 (PC))  returns 0x08002E96 (0000ms, 16933ms total)
T3B58 17382:210 JLINK_ReadReg(XPSR)  returns 0x61000000 (0000ms, 16933ms total)
T3B58 17382:210 JLINK_ReadReg(MSP)  returns 0x20001428 (0000ms, 16933ms total)
T3B58 17382:210 JLINK_ReadReg(PSP)  returns 0x20000570 (0000ms, 16933ms total)
T3B58 17382:210 JLINK_ReadReg(CFBP)  returns 0x02000000 (0000ms, 16933ms total)
T201C 17382:210 JLINK_ReadMemEx(0x00000000, 0x0001 Bytes, ..., Flags = 0x02000000) -- CPU_ReadMem(4 bytes @ 0x00000004) -- CPU_ReadMem(64 bytes @ 0x08000000) -- Updating C cache (64 bytes @ 0x08000000) -- Read from C cache (1 bytes @ 0x08000000) - Data: 60  returns 0x01 (0002ms, 16935ms total)
T201C 17382:212 JLINK_ReadMemEx(0x00000000, 0x0004 Bytes, ..., Flags = 0x02000000) -- Read from C cache (4 bytes @ 0x08000000) - Data: 60 14 00 20  returns 0x04 (0000ms, 16935ms total)
T201C 17382:212 JLINK_ReadMemEx(0x08002E96, 0x0002 Bytes, ..., Flags = 0x02000000) -- CPU_ReadMem(64 bytes @ 0x08002E80) -- Updating C cache (64 bytes @ 0x08002E80) -- Read from C cache (2 bytes @ 0x08002E96) - Data: 42 A0  returns 0x02 (0001ms, 16936ms total)
T201C 17382:213 JLINK_ReadMemEx(0x08002E98, 0x003C Bytes, ..., Flags = 0x02000000) -- CPU_ReadMem(64 bytes @ 0x08002EC0) -- Updating C cache (64 bytes @ 0x08002EC0) -- Read from C cache (60 bytes @ 0x08002E98) - Data: FF F7 B0 FB 00 24 29 5D 42 A0 FF F7 AB FB 64 1C ...  returns 0x3C (0001ms, 16937ms total)
T3B58 17386:076 JLINK_ReadMemEx(0x08002E96, 0x0002 Bytes, ..., Flags = 0x02000000) -- Read from C cache (2 bytes @ 0x08002E96) - Data: 42 A0  returns 0x02 (0000ms, 16937ms total)
T3B58 17386:076 JLINK_Step() -- Read from C cache (2 bytes @ 0x08002E96) -- CPU_ReadMem(4 bytes @ 0xE000ED18) -- CPU_WriteMem(4 bytes @ 0xE000ED18) -- CPU_ReadMem(4 bytes @ 0xE000ED18) -- CPU_WriteMem(4 bytes @ 0xE000ED18) -- CPU_ReadMem(4 bytes @ 0xE0001004) -- Simulated  returns 0x00 (0003ms, 16940ms total)
T3B58 17386:079 JLINK_ReadReg(R15 (PC))  returns 0x08002E98 (0000ms, 16940ms total)
T3B58 17386:079 JLINK_ReadReg(XPSR)  returns 0x61000000 (0000ms, 16940ms total)
T3B58 17386:079 JLINK_ReadMemEx(0x08002E98, 0x003C Bytes, ..., Flags = 0x02000000) -- Read from C cache (60 bytes @ 0x08002E98) - Data: FF F7 B0 FB 00 24 29 5D 42 A0 FF F7 AB FB 64 1C ...  returns 0x3C (0000ms, 16940ms total)
T3B58 17386:079 JLINK_ReadMemEx(0x08002E98, 0x0002 Bytes, ..., Flags = 0x02000000) -- Read from C cache (2 bytes @ 0x08002E98) - Data: FF F7  returns 0x02 (0000ms, 16940ms total)
T3B58 17386:079 JLINK_ReadMemEx(0x08002E9A, 0x0002 Bytes, ..., Flags = 0x02000000) -- Read from C cache (2 bytes @ 0x08002E9A) - Data: B0 FB  returns 0x02 (0000ms, 16940ms total)
T3B58 17386:079 JLINK_SetBPEx(Addr = 0x08002E9C, Type = 0xFFFFFFF2)  returns 0x00000005 (0000ms, 16940ms total)
T3B58 17386:079 JLINK_SetBPEx(Addr = 0x08002E96, Type = 0xFFFFFFF2)  returns 0x00000006 (0000ms, 16940ms total)
T3B58 17386:079 JLINK_Go() -- CPU_WriteMem(4 bytes @ 0xE0002000) -- CPU_WriteMem(4 bytes @ 0xE0002000) -- CPU_ReadMem(4 bytes @ 0xE0001000) -- CPU_WriteMem(4 bytes @ 0xE0001000) -- CPU_WriteMem(4 bytes @ 0xE0002008) -- CPU_WriteMem(4 bytes @ 0xE000200C) -- CPU_WriteMem(4 bytes @ 0xE0001004) (0004ms, 16944ms total)
T3B58 17386:183 JLINK_IsHalted()  returns TRUE (0002ms, 16946ms total)
T3B58 17386:185 JLINK_Halt()  returns 0x00 (0000ms, 16944ms total)
T3B58 17386:185 JLINK_IsHalted()  returns TRUE (0000ms, 16944ms total)
T3B58 17386:185 JLINK_IsHalted()  returns TRUE (0000ms, 16944ms total)
T3B58 17386:185 JLINK_IsHalted()  returns TRUE (0000ms, 16944ms total)
T3B58 17386:185 JLINK_ReadReg(R15 (PC))  returns 0x08002E9C (0000ms, 16944ms total)
T3B58 17386:185 JLINK_ReadReg(XPSR)  returns 0x61000000 (0000ms, 16944ms total)
T3B58 17386:185 JLINK_ClrBPEx(BPHandle = 0x00000005)  returns 0x00 (0000ms, 16944ms total)
T3B58 17386:185 JLINK_ClrBPEx(BPHandle = 0x00000006)  returns 0x00 (0000ms, 16944ms total)
T3B58 17386:185 JLINK_ReadMemU32(0xE000ED30, 0x0001 Items, ...) -- CPU_ReadMem(4 bytes @ 0xE000ED30) - Data: 03 00 00 00  returns 0x01 (0001ms, 16945ms total)
T3B58 17386:186 JLINK_ReadMemU32(0xE0001028, 0x0001 Items, ...) -- CPU_ReadMem(4 bytes @ 0xE0001028) - Data: 00 00 00 00  returns 0x01 (0000ms, 16945ms total)
T3B58 17386:186 JLINK_ReadMemU32(0xE0001038, 0x0001 Items, ...) -- CPU_ReadMem(4 bytes @ 0xE0001038) - Data: 00 00 00 00  returns 0x01 (0000ms, 16945ms total)
T3B58 17386:187 JLINK_ReadReg(R0)  returns 0x00000009 (0000ms, 16946ms total)
T3B58 17386:187 JLINK_ReadReg(R1)  returns 0xA0000000 (0000ms, 16946ms total)
T3B58 17386:187 JLINK_ReadReg(R2)  returns 0x00000000 (0000ms, 16946ms total)
T3B58 17386:187 JLINK_ReadReg(R3)  returns 0x08002E9D (0000ms, 16946ms total)
T3B58 17386:187 JLINK_ReadReg(R4)  returns 0x00000000 (0000ms, 16946ms total)
T3B58 17386:187 JLINK_ReadReg(R5)  returns 0x20000358 (0000ms, 16946ms total)
T3B58 17386:187 JLINK_ReadReg(R6)  returns 0x080034C0 (0000ms, 16946ms total)
T3B58 17386:187 JLINK_ReadReg(R7)  returns 0xFFFFFFFF (0000ms, 16946ms total)
T3B58 17386:187 JLINK_ReadReg(R8)  returns 0xFFFFFFFF (0000ms, 16946ms total)
T3B58 17386:187 JLINK_ReadReg(R9)  returns 0xFFFFFFFF (0000ms, 16946ms total)
T3B58 17386:187 JLINK_ReadReg(R10)  returns 0xFFFFFFFF (0000ms, 16946ms total)
T3B58 17386:187 JLINK_ReadReg(R11)  returns 0xFFFFFFFF (0000ms, 16946ms total)
T3B58 17386:187 JLINK_ReadReg(R12)  returns 0x00008000 (0000ms, 16946ms total)
T3B58 17386:187 JLINK_ReadReg(R13 (SP))  returns 0x20000570 (0000ms, 16946ms total)
T3B58 17386:187 JLINK_ReadReg(R14)  returns 0x08002525 (0000ms, 16946ms total)
T3B58 17386:187 JLINK_ReadReg(R15 (PC))  returns 0x08002E9C (0000ms, 16946ms total)
T3B58 17386:187 JLINK_ReadReg(XPSR)  returns 0x61000000 (0000ms, 16946ms total)
T3B58 17386:187 JLINK_ReadReg(MSP)  returns 0x20001428 (0000ms, 16946ms total)
T3B58 17386:187 JLINK_ReadReg(PSP)  returns 0x20000570 (0000ms, 16946ms total)
T3B58 17386:187 JLINK_ReadReg(CFBP)  returns 0x02000000 (0000ms, 16946ms total)
T201C 17386:187 JLINK_ReadMemEx(0x00000000, 0x0001 Bytes, ..., Flags = 0x02000000) -- CPU_ReadMem(4 bytes @ 0x00000004) -- CPU_ReadMem(64 bytes @ 0x08000000) -- Updating C cache (64 bytes @ 0x08000000) -- Read from C cache (1 bytes @ 0x08000000) - Data: 60  returns 0x01 (0002ms, 16948ms total)
T201C 17386:189 JLINK_ReadMemEx(0x00000000, 0x0004 Bytes, ..., Flags = 0x02000000) -- Read from C cache (4 bytes @ 0x08000000) - Data: 60 14 00 20  returns 0x04 (0000ms, 16948ms total)
T201C 17386:189 JLINK_ReadMemEx(0x08002E9C, 0x003C Bytes, ..., Flags = 0x02000000) -- CPU_ReadMem(128 bytes @ 0x08002E80) -- Updating C cache (128 bytes @ 0x08002E80) -- Read from C cache (60 bytes @ 0x08002E9C) - Data: 00 24 29 5D 42 A0 FF F7 AB FB 64 1C E4 B2 02 2C ...  returns 0x3C (0001ms, 16949ms total)
T201C 17389:713 JLINK_ReadMemEx(0x20000358, 0x0001 Bytes, ..., Flags = 0x02000000) -- CPU_ReadMem(64 bytes @ 0x20000340) -- Updating C cache (64 bytes @ 0x20000340) -- Read from C cache (1 bytes @ 0x20000358) - Data: 04  returns 0x01 (0001ms, 16950ms total)
T3B58 17391:419 JLINK_ReadMemEx(0x08002E9C, 0x0002 Bytes, ..., Flags = 0x02000000) -- Read from C cache (2 bytes @ 0x08002E9C) - Data: 00 24  returns 0x02 (0000ms, 16950ms total)
T3B58 17391:419 JLINK_Step() -- Read from C cache (2 bytes @ 0x08002E9C) -- CPU_ReadMem(4 bytes @ 0xE0001004) -- Simulated  returns 0x00 (0001ms, 16951ms total)
T3B58 17391:420 JLINK_ReadReg(R15 (PC))  returns 0x08002E9E (0000ms, 16951ms total)
T3B58 17391:420 JLINK_ReadReg(XPSR)  returns 0x61000000 (0000ms, 16951ms total)
T3B58 17391:420 JLINK_ReadReg(R0)  returns 0x00000009 (0000ms, 16951ms total)
T3B58 17391:420 JLINK_ReadReg(R1)  returns 0xA0000000 (0000ms, 16951ms total)
T3B58 17391:420 JLINK_ReadReg(R2)  returns 0x00000000 (0000ms, 16951ms total)
T3B58 17391:420 JLINK_ReadReg(R3)  returns 0x08002E9D (0000ms, 16951ms total)
T3B58 17391:420 JLINK_ReadReg(R4)  returns 0x00000000 (0000ms, 16951ms total)
T3B58 17391:420 JLINK_ReadReg(R5)  returns 0x20000358 (0000ms, 16951ms total)
T3B58 17391:420 JLINK_ReadReg(R6)  returns 0x080034C0 (0000ms, 16951ms total)
T3B58 17391:420 JLINK_ReadReg(R7)  returns 0xFFFFFFFF (0000ms, 16951ms total)
T3B58 17391:420 JLINK_ReadReg(R8)  returns 0xFFFFFFFF (0000ms, 16951ms total)
T3B58 17391:420 JLINK_ReadReg(R9)  returns 0xFFFFFFFF (0000ms, 16951ms total)
T3B58 17391:421 JLINK_ReadReg(R10)  returns 0xFFFFFFFF (0000ms, 16952ms total)
T3B58 17391:421 JLINK_ReadReg(R11)  returns 0xFFFFFFFF (0000ms, 16952ms total)
T3B58 17391:421 JLINK_ReadReg(R12)  returns 0x00008000 (0000ms, 16952ms total)
T3B58 17391:421 JLINK_ReadReg(R13 (SP))  returns 0x20000570 (0000ms, 16952ms total)
T3B58 17391:421 JLINK_ReadReg(R14)  returns 0x08002525 (0000ms, 16952ms total)
T3B58 17391:421 JLINK_ReadReg(R15 (PC))  returns 0x08002E9E (0000ms, 16952ms total)
T3B58 17391:421 JLINK_ReadReg(XPSR)  returns 0x61000000 (0000ms, 16952ms total)
T3B58 17391:421 JLINK_ReadReg(MSP)  returns 0x20001428 (0000ms, 16952ms total)
T3B58 17391:421 JLINK_ReadReg(PSP)  returns 0x20000570 (0000ms, 16952ms total)
T3B58 17391:421 JLINK_ReadReg(CFBP)  returns 0x02000000 (0000ms, 16952ms total)
T201C 17391:421 JLINK_ReadMemEx(0x00000000, 0x0001 Bytes, ..., Flags = 0x02000000) -- Read from C cache (1 bytes @ 0x08000000) - Data: 60  returns 0x01 (0000ms, 16952ms total)
T201C 17391:421 JLINK_ReadMemEx(0x00000000, 0x0004 Bytes, ..., Flags = 0x02000000) -- Read from C cache (4 bytes @ 0x08000000) - Data: 60 14 00 20  returns 0x04 (0000ms, 16952ms total)
T201C 17391:421 JLINK_ReadMemEx(0x08002E9E, 0x0002 Bytes, ..., Flags = 0x02000000) -- Read from C cache (2 bytes @ 0x08002E9E) - Data: 29 5D  returns 0x02 (0000ms, 16952ms total)
T201C 17391:421 JLINK_ReadMemEx(0x08002EA0, 0x003C Bytes, ..., Flags = 0x02000000) -- Read from C cache (60 bytes @ 0x08002EA0) - Data: 42 A0 FF F7 AB FB 64 1C E4 B2 02 2C F7 D3 3B 48 ...  returns 0x3C (0000ms, 16952ms total)
T3B58 17391:643 JLINK_ReadMemEx(0x08002E9E, 0x0002 Bytes, ..., Flags = 0x02000000) -- Read from C cache (2 bytes @ 0x08002E9E) - Data: 29 5D  returns 0x02 (0000ms, 16952ms total)
T3B58 17391:643 JLINK_Step() -- Read from C cache (2 bytes @ 0x08002E9E) -- Read from C cache (1 bytes @ 0x20000358) -- Simulated  returns 0x00 (0000ms, 16952ms total)
T3B58 17391:643 JLINK_ReadReg(R15 (PC))  returns 0x08002EA0 (0000ms, 16952ms total)
T3B58 17391:643 JLINK_ReadReg(XPSR)  returns 0x61000000 (0000ms, 16952ms total)
T3B58 17391:643 JLINK_ReadReg(R0)  returns 0x00000009 (0000ms, 16952ms total)
T3B58 17391:643 JLINK_ReadReg(R1)  returns 0x00000004 (0000ms, 16952ms total)
T3B58 17391:644 JLINK_ReadReg(R2)  returns 0x00000000 (0000ms, 16952ms total)
T3B58 17391:644 JLINK_ReadReg(R3)  returns 0x08002E9D (0000ms, 16952ms total)
T3B58 17391:644 JLINK_ReadReg(R4)  returns 0x00000000 (0000ms, 16952ms total)
T3B58 17391:644 JLINK_ReadReg(R5)  returns 0x20000358 (0000ms, 16952ms total)
T3B58 17391:644 JLINK_ReadReg(R6)  returns 0x080034C0 (0000ms, 16952ms total)
T3B58 17391:644 JLINK_ReadReg(R7)  returns 0xFFFFFFFF (0000ms, 16952ms total)
T3B58 17391:644 JLINK_ReadReg(R8)  returns 0xFFFFFFFF (0000ms, 16952ms total)
T3B58 17391:644 JLINK_ReadReg(R9)  returns 0xFFFFFFFF (0000ms, 16952ms total)
T3B58 17391:644 JLINK_ReadReg(R10)  returns 0xFFFFFFFF (0000ms, 16952ms total)
T3B58 17391:644 JLINK_ReadReg(R11)  returns 0xFFFFFFFF (0000ms, 16952ms total)
T3B58 17391:644 JLINK_ReadReg(R12)  returns 0x00008000 (0000ms, 16952ms total)
T3B58 17391:644 JLINK_ReadReg(R13 (SP))  returns 0x20000570 (0000ms, 16952ms total)
T3B58 17391:644 JLINK_ReadReg(R14)  returns 0x08002525 (0000ms, 16952ms total)
T3B58 17391:644 JLINK_ReadReg(R15 (PC))  returns 0x08002EA0 (0000ms, 16952ms total)
T3B58 17391:644 JLINK_ReadReg(XPSR)  returns 0x61000000 (0000ms, 16952ms total)
T3B58 17391:644 JLINK_ReadReg(MSP)  returns 0x20001428 (0000ms, 16952ms total)
T3B58 17391:644 JLINK_ReadReg(PSP)  returns 0x20000570 (0000ms, 16952ms total)
T3B58 17391:644 JLINK_ReadReg(CFBP)  returns 0x02000000 (0000ms, 16952ms total)
T201C 17391:646 JLINK_ReadMemEx(0x00000000, 0x0001 Bytes, ..., Flags = 0x02000000) -- Read from C cache (1 bytes @ 0x08000000) - Data: 60  returns 0x01 (0000ms, 16952ms total)
T201C 17391:646 JLINK_ReadMemEx(0x00000000, 0x0004 Bytes, ..., Flags = 0x02000000) -- Read from C cache (4 bytes @ 0x08000000) - Data: 60 14 00 20  returns 0x04 (0000ms, 16952ms total)
T3B58 17391:843 JLINK_ReadMemEx(0x08002EA0, 0x003C Bytes, ..., Flags = 0x02000000) -- Read from C cache (60 bytes @ 0x08002EA0) - Data: 42 A0 FF F7 AB FB 64 1C E4 B2 02 2C F7 D3 3B 48 ...  returns 0x3C (0000ms, 16952ms total)
T3B58 17391:843 JLINK_ReadMemEx(0x08002EA0, 0x0002 Bytes, ..., Flags = 0x02000000) -- Read from C cache (2 bytes @ 0x08002EA0) - Data: 42 A0  returns 0x02 (0000ms, 16952ms total)
T3B58 17391:843 JLINK_Step() -- Read from C cache (2 bytes @ 0x08002EA0) -- Simulated  returns 0x00 (0000ms, 16952ms total)
T3B58 17391:843 JLINK_ReadReg(R15 (PC))  returns 0x08002EA2 (0000ms, 16952ms total)
T3B58 17391:843 JLINK_ReadReg(XPSR)  returns 0x61000000 (0001ms, 16953ms total)
T3B58 17391:844 JLINK_ReadMemEx(0x08002EA2, 0x0002 Bytes, ..., Flags = 0x02000000) -- Read from C cache (2 bytes @ 0x08002EA2) - Data: FF F7  returns 0x02 (0000ms, 16953ms total)
T3B58 17391:844 JLINK_ReadMemEx(0x08002EA4, 0x003C Bytes, ..., Flags = 0x02000000) -- Read from C cache (60 bytes @ 0x08002EA4) - Data: AB FB 64 1C E4 B2 02 2C F7 D3 3B 48 FE F7 61 FC ...  returns 0x3C (0000ms, 16953ms total)
T3B58 17391:844 JLINK_ReadMemEx(0x08002EA4, 0x0002 Bytes, ..., Flags = 0x02000000) -- Read from C cache (2 bytes @ 0x08002EA4) - Data: AB FB  returns 0x02 (0000ms, 16953ms total)
T3B58 17391:844 JLINK_SetBPEx(Addr = 0x08002EA6, Type = 0xFFFFFFF2)  returns 0x00000007 (0000ms, 16953ms total)
T3B58 17391:844 JLINK_SetBPEx(Addr = 0x08002E96, Type = 0xFFFFFFF2)  returns 0x00000008 (0000ms, 16953ms total)
T3B58 17391:844 JLINK_Go() -- CPU_WriteMem(4 bytes @ 0xE0002000) -- CPU_WriteMem(4 bytes @ 0xE0002000) -- CPU_ReadMem(4 bytes @ 0xE0001000) -- CPU_WriteMem(4 bytes @ 0xE0001000) -- CPU_WriteMem(4 bytes @ 0xE0002008) -- CPU_WriteMem(4 bytes @ 0xE0001004) (0003ms, 16956ms total)
T3B58 17391:949 JLINK_IsHalted()  returns TRUE (0002ms, 16958ms total)
T3B58 17391:951 JLINK_Halt()  returns 0x00 (0000ms, 16956ms total)
T3B58 17391:951 JLINK_IsHalted()  returns TRUE (0000ms, 16956ms total)
T3B58 17391:951 JLINK_IsHalted()  returns TRUE (0000ms, 16956ms total)
T3B58 17391:951 JLINK_IsHalted()  returns TRUE (0000ms, 16956ms total)
T3B58 17391:951 JLINK_ReadReg(R15 (PC))  returns 0x08002EA6 (0000ms, 16956ms total)
T3B58 17391:951 JLINK_ReadReg(XPSR)  returns 0x61000000 (0000ms, 16956ms total)
T3B58 17391:951 JLINK_ClrBPEx(BPHandle = 0x00000007)  returns 0x00 (0000ms, 16956ms total)
T3B58 17391:951 JLINK_ClrBPEx(BPHandle = 0x00000008)  returns 0x00 (0000ms, 16956ms total)
T3B58 17391:951 JLINK_ReadMemU32(0xE000ED30, 0x0001 Items, ...) -- CPU_ReadMem(4 bytes @ 0xE000ED30) - Data: 03 00 00 00  returns 0x01 (0001ms, 16957ms total)
T3B58 17391:952 JLINK_ReadMemU32(0xE0001028, 0x0001 Items, ...) -- CPU_ReadMem(4 bytes @ 0xE0001028) - Data: 00 00 00 00  returns 0x01 (0000ms, 16957ms total)
T3B58 17391:952 JLINK_ReadMemU32(0xE0001038, 0x0001 Items, ...) -- CPU_ReadMem(4 bytes @ 0xE0001038) - Data: 00 00 00 00  returns 0x01 (0000ms, 16957ms total)
T3B58 17391:953 JLINK_ReadMemEx(0x08002EA4, 0x003C Bytes, ..., Flags = 0x02000000) -- CPU_ReadMem(128 bytes @ 0x08002E80) -- Updating C cache (128 bytes @ 0x08002E80) -- Read from C cache (60 bytes @ 0x08002EA4) - Data: AB FB 64 1C E4 B2 02 2C F7 D3 3B 48 FE F7 61 FC ...  returns 0x3C (0001ms, 16958ms total)
T3B58 17391:954 JLINK_ReadMemEx(0x08002EA4, 0x0002 Bytes, ..., Flags = 0x02000000) -- Read from C cache (2 bytes @ 0x08002EA4) - Data: AB FB  returns 0x02 (0000ms, 16958ms total)
T3B58 17391:954 JLINK_ReadMemEx(0x08002EA6, 0x0002 Bytes, ..., Flags = 0x02000000) -- Read from C cache (2 bytes @ 0x08002EA6) - Data: 64 1C  returns 0x02 (0000ms, 16958ms total)
T3B58 17391:954 JLINK_ReadMemEx(0x08002EA6, 0x0002 Bytes, ..., Flags = 0x02000000) -- Read from C cache (2 bytes @ 0x08002EA6) - Data: 64 1C  returns 0x02 (0000ms, 16958ms total)
T3B58 17391:954 JLINK_ReadMemEx(0x08002EA8, 0x003C Bytes, ..., Flags = 0x02000000) -- Read from C cache (60 bytes @ 0x08002EA8) - Data: E4 B2 02 2C F7 D3 3B 48 FE F7 61 FC 00 28 DF D1 ...  returns 0x3C (0000ms, 16958ms total)
T3B58 17391:954 JLINK_ReadMemEx(0x08002EA8, 0x0002 Bytes, ..., Flags = 0x02000000) -- Read from C cache (2 bytes @ 0x08002EA8) - Data: E4 B2  returns 0x02 (0000ms, 16958ms total)
T3B58 17391:954 JLINK_Step() -- Read from C cache (2 bytes @ 0x08002EA6) -- CPU_ReadMem(4 bytes @ 0xE0001004) -- Simulated  returns 0x00 (0001ms, 16959ms total)
T3B58 17391:955 JLINK_ReadReg(R15 (PC))  returns 0x08002EA8 (0000ms, 16959ms total)
T3B58 17391:955 JLINK_ReadReg(XPSR)  returns 0x01000000 (0000ms, 16959ms total)
T3B58 17391:955 JLINK_ReadMemEx(0x08002EA8, 0x003C Bytes, ..., Flags = 0x02000000) -- Read from C cache (60 bytes @ 0x08002EA8) - Data: E4 B2 02 2C F7 D3 3B 48 FE F7 61 FC 00 28 DF D1 ...  returns 0x3C (0000ms, 16959ms total)
T3B58 17391:955 JLINK_ReadMemEx(0x08002EA8, 0x0002 Bytes, ..., Flags = 0x02000000) -- Read from C cache (2 bytes @ 0x08002EA8) - Data: E4 B2  returns 0x02 (0000ms, 16959ms total)
T3B58 17391:955 JLINK_ReadMemEx(0x08002EAA, 0x0002 Bytes, ..., Flags = 0x02000000) -- Read from C cache (2 bytes @ 0x08002EAA) - Data: 02 2C  returns 0x02 (0000ms, 16959ms total)
T3B58 17391:955 JLINK_Step() -- Read from C cache (2 bytes @ 0x08002EA8) -- Simulated  returns 0x00 (0000ms, 16959ms total)
T3B58 17391:955 JLINK_ReadReg(R15 (PC))  returns 0x08002EAA (0000ms, 16959ms total)
T3B58 17391:955 JLINK_ReadReg(XPSR)  returns 0x01000000 (0000ms, 16959ms total)
T3B58 17391:955 JLINK_ReadMemEx(0x08002EAA, 0x0002 Bytes, ..., Flags = 0x02000000) -- Read from C cache (2 bytes @ 0x08002EAA) - Data: 02 2C  returns 0x02 (0000ms, 16959ms total)
T3B58 17391:955 JLINK_ReadMemEx(0x08002EAC, 0x003C Bytes, ..., Flags = 0x02000000) -- Read from C cache (60 bytes @ 0x08002EAC) - Data: F7 D3 3B 48 FE F7 61 FC 00 28 DF D1 3D A0 FF F7 ...  returns 0x3C (0000ms, 16959ms total)
T3B58 17391:955 JLINK_ReadMemEx(0x08002EAC, 0x0002 Bytes, ..., Flags = 0x02000000) -- Read from C cache (2 bytes @ 0x08002EAC) - Data: F7 D3  returns 0x02 (0000ms, 16959ms total)
T3B58 17391:955 JLINK_Step() -- Read from C cache (2 bytes @ 0x08002EAA) -- Simulated  returns 0x00 (0000ms, 16959ms total)
T3B58 17391:955 JLINK_ReadReg(R15 (PC))  returns 0x08002EAC (0000ms, 16959ms total)
T3B58 17391:955 JLINK_ReadReg(XPSR)  returns 0x81000000 (0000ms, 16959ms total)
T3B58 17391:955 JLINK_ReadMemEx(0x08002EAC, 0x003C Bytes, ..., Flags = 0x02000000) -- Read from C cache (60 bytes @ 0x08002EAC) - Data: F7 D3 3B 48 FE F7 61 FC 00 28 DF D1 3D A0 FF F7 ...  returns 0x3C (0000ms, 16959ms total)
T3B58 17391:955 JLINK_ReadMemEx(0x08002EAC, 0x0002 Bytes, ..., Flags = 0x02000000) -- Read from C cache (2 bytes @ 0x08002EAC) - Data: F7 D3  returns 0x02 (0000ms, 16959ms total)
T3B58 17391:955 JLINK_ReadMemEx(0x08002EAE, 0x0002 Bytes, ..., Flags = 0x02000000) -- Read from C cache (2 bytes @ 0x08002EAE) - Data: 3B 48  returns 0x02 (0001ms, 16960ms total)
T3B58 17391:956 JLINK_Step() -- Read from C cache (2 bytes @ 0x08002EAC) -- Simulated  returns 0x00 (0000ms, 16960ms total)
T3B58 17391:956 JLINK_ReadReg(R15 (PC))  returns 0x08002E9E (0000ms, 16960ms total)
T3B58 17391:956 JLINK_ReadReg(XPSR)  returns 0x81000000 (0000ms, 16960ms total)
T3B58 17391:956 JLINK_ReadReg(R0)  returns 0x00000001 (0000ms, 16960ms total)
T3B58 17391:956 JLINK_ReadReg(R1)  returns 0x00000000 (0000ms, 16960ms total)
T3B58 17391:956 JLINK_ReadReg(R2)  returns 0x00000000 (0000ms, 16960ms total)
T3B58 17391:956 JLINK_ReadReg(R3)  returns 0x08002EA7 (0000ms, 16960ms total)
T3B58 17391:956 JLINK_ReadReg(R4)  returns 0x00000001 (0000ms, 16960ms total)
T3B58 17391:956 JLINK_ReadReg(R5)  returns 0x20000358 (0000ms, 16960ms total)
T3B58 17391:956 JLINK_ReadReg(R6)  returns 0x080034C0 (0000ms, 16960ms total)
T3B58 17391:956 JLINK_ReadReg(R7)  returns 0xFFFFFFFF (0000ms, 16960ms total)
T3B58 17391:956 JLINK_ReadReg(R8)  returns 0xFFFFFFFF (0000ms, 16960ms total)
T3B58 17391:956 JLINK_ReadReg(R9)  returns 0xFFFFFFFF (0000ms, 16960ms total)
T3B58 17391:956 JLINK_ReadReg(R10)  returns 0xFFFFFFFF (0000ms, 16960ms total)
T3B58 17391:956 JLINK_ReadReg(R11)  returns 0xFFFFFFFF (0000ms, 16960ms total)
T3B58 17391:956 JLINK_ReadReg(R12)  returns 0x00000000 (0000ms, 16960ms total)
T3B58 17391:956 JLINK_ReadReg(R13 (SP))  returns 0x20000570 (0000ms, 16960ms total)
T3B58 17391:956 JLINK_ReadReg(R14)  returns 0x08002525 (0000ms, 16960ms total)
T3B58 17391:956 JLINK_ReadReg(R15 (PC))  returns 0x08002E9E (0000ms, 16960ms total)
T3B58 17391:956 JLINK_ReadReg(XPSR)  returns 0x81000000 (0000ms, 16960ms total)
T3B58 17391:956 JLINK_ReadReg(MSP)  returns 0x20001428 (0000ms, 16960ms total)
T3B58 17391:956 JLINK_ReadReg(PSP)  returns 0x20000570 (0000ms, 16960ms total)
T3B58 17391:956 JLINK_ReadReg(CFBP)  returns 0x02000000 (0000ms, 16960ms total)
T201C 17391:957 JLINK_ReadMemEx(0x00000000, 0x0001 Bytes, ..., Flags = 0x02000000) -- CPU_ReadMem(4 bytes @ 0x00000004) -- CPU_ReadMem(64 bytes @ 0x08000000) -- Updating C cache (64 bytes @ 0x08000000) -- Read from C cache (1 bytes @ 0x08000000) - Data: 60  returns 0x01 (0001ms, 16961ms total)
T201C 17391:958 JLINK_ReadMemEx(0x00000000, 0x0004 Bytes, ..., Flags = 0x02000000) -- Read from C cache (4 bytes @ 0x08000000) - Data: 60 14 00 20  returns 0x04 (0000ms, 16961ms total)
T201C 17391:958 JLINK_ReadMemEx(0x08002E9E, 0x0002 Bytes, ..., Flags = 0x02000000) -- Read from C cache (2 bytes @ 0x08002E9E) - Data: 29 5D  returns 0x02 (0000ms, 16961ms total)
T201C 17391:958 JLINK_ReadMemEx(0x08002EA0, 0x003C Bytes, ..., Flags = 0x02000000) -- Read from C cache (60 bytes @ 0x08002EA0) - Data: 42 A0 FF F7 AB FB 64 1C E4 B2 02 2C F7 D3 3B 48 ...  returns 0x3C (0000ms, 16961ms total)
T3B58 17392:212 JLINK_ReadMemEx(0x08002E9E, 0x0002 Bytes, ..., Flags = 0x02000000) -- Read from C cache (2 bytes @ 0x08002E9E) - Data: 29 5D  returns 0x02 (0000ms, 16961ms total)
T3B58 17392:212 JLINK_Step() -- Read from C cache (2 bytes @ 0x08002E9E) -- CPU_ReadMem(64 bytes @ 0x20000340) -- Updating C cache (64 bytes @ 0x20000340) -- Read from C cache (1 bytes @ 0x20000359) -- Simulated  returns 0x00 (0001ms, 16962ms total)
T3B58 17392:214 JLINK_ReadReg(R15 (PC))  returns 0x08002EA0 (0000ms, 16962ms total)
T3B58 17392:214 JLINK_ReadReg(XPSR)  returns 0x81000000 (0000ms, 16962ms total)
T3B58 17392:214 JLINK_ReadReg(R0)  returns 0x00000001 (0000ms, 16962ms total)
T3B58 17392:214 JLINK_ReadReg(R1)  returns 0x00000000 (0000ms, 16962ms total)
T3B58 17392:214 JLINK_ReadReg(R2)  returns 0x00000000 (0000ms, 16962ms total)
T3B58 17392:214 JLINK_ReadReg(R3)  returns 0x08002EA7 (0000ms, 16962ms total)
T3B58 17392:214 JLINK_ReadReg(R4)  returns 0x00000001 (0000ms, 16962ms total)
T3B58 17392:214 JLINK_ReadReg(R5)  returns 0x20000358 (0000ms, 16962ms total)
T3B58 17392:214 JLINK_ReadReg(R6)  returns 0x080034C0 (0000ms, 16962ms total)
T3B58 17392:214 JLINK_ReadReg(R7)  returns 0xFFFFFFFF (0000ms, 16962ms total)
T3B58 17392:214 JLINK_ReadReg(R8)  returns 0xFFFFFFFF (0000ms, 16962ms total)
T3B58 17392:214 JLINK_ReadReg(R9)  returns 0xFFFFFFFF (0000ms, 16962ms total)
T3B58 17392:214 JLINK_ReadReg(R10)  returns 0xFFFFFFFF (0000ms, 16962ms total)
T3B58 17392:214 JLINK_ReadReg(R11)  returns 0xFFFFFFFF (0000ms, 16962ms total)
T3B58 17392:214 JLINK_ReadReg(R12)  returns 0x00000000 (0000ms, 16962ms total)
T3B58 17392:214 JLINK_ReadReg(R13 (SP))  returns 0x20000570 (0000ms, 16962ms total)
T3B58 17392:214 JLINK_ReadReg(R14)  returns 0x08002525 (0000ms, 16962ms total)
T3B58 17392:214 JLINK_ReadReg(R15 (PC))  returns 0x08002EA0 (0000ms, 16962ms total)
T3B58 17392:214 JLINK_ReadReg(XPSR)  returns 0x81000000 (0000ms, 16962ms total)
T3B58 17392:214 JLINK_ReadReg(MSP)  returns 0x20001428 (0000ms, 16962ms total)
T3B58 17392:214 JLINK_ReadReg(PSP)  returns 0x20000570 (0000ms, 16962ms total)
T3B58 17392:214 JLINK_ReadReg(CFBP)  returns 0x02000000 (0000ms, 16962ms total)
T201C 17392:215 JLINK_ReadMemEx(0x00000000, 0x0001 Bytes, ..., Flags = 0x02000000) -- Read from C cache (1 bytes @ 0x08000000) - Data: 60  returns 0x01 (0000ms, 16962ms total)
